EXAMPLE STATION,IED1,2013
2,1A,1D
1,analog value,,,A, 1.0,0.0,0.0,-32768,32767,933,1,s
1,binary value,,,1
50
1
4000,16000 
2024-03-15,23:09:00.703
2024-03-15,23:09:04.603
ASCII
1
+1h,+1h
B,3
0,0,-215,1
1,250,-215,1
2,500,-215,1
3,750,-215,1
4,1000,-200,1
5,1250,-200,1
6,1500,-200,1
7,1750,-200,1
8,2000,-200,1
9,2250,-183,1
10,2500,-183,1
11,2750,-183,1
12,3000,-183,1
13,3250,-166,1
14,3500,-166,1
15,3750,-166,1
16,4000,-166,1
17,4250,-166,1
18,4500,-147,1
19,4750,-147,1
20,5000,-147,1
21,5250,-147,1
22,5500,-128,1
23,5750,-128,1
24,6000,-128,1
25,6250,-128,1
26,6500,-108,1
27,6750,-108,1
28,7000,-108,1
29,7250,-108,1
30,7500,-108,1
31,7750,-87,1
32,8000,-87,1
33,8250,-87,1
34,8500,-87,1
35,8750,-66,1
36,9000,-66,1
37,9250,-66,1
38,9500,-66,1
39,9750,-66,1
40,10000,-44,1
41,10250,-44,1
42,10500,-44,1
43,10750,-44,1
44,11000,-22,1
45,11250,-22,1
46,11500,-22,1
47,11750,-22,1
48,12000,-22,1
49,12250,0,1
50,12500,0,1
51,12750,0,1
52,13000,0,1
53,13250,22,1
54,13500,22,1
55,13750,22,1
56,14000,22,1
57,14250,22,1
58,14500,44,1
59,14750,44,1
60,15000,44,1
61,15250,44,1
62,15500,66,1
63,15750,66,1
64,16000,66,1
65,16250,66,1
66,16500,66,1
67,16750,87,1
68,17000,87,1
69,17250,87,1
70,17500,87,1
71,17750,108,1
72,18000,108,1
73,18250,108,1
74,18500,108,1
75,18750,108,1
76,19000,128,1
77,19250,128,1
78,19500,128,1
79,19750,128,1
80,20000,128,1
81,20250,147,1
82,20500,147,1
83,20750,147,1
84,21000,147,1
85,21250,166,1
86,21500,166,1
87,21750,166,1
88,22000,166,1
89,22250,166,1
90,22500,183,1
91,22750,183,1
92,23000,183,1
93,23250,183,1
94,23500,200,1
95,23750,200,1
96,24000,200,1
97,24250,200,1
98,24500,200,1
99,24750,215,1
100,25000,215,1
101,25250,215,1
102,25500,215,1
103,25750,228,1
104,26000,228,1
105,26250,228,1
106,26500,228,1
107,26750,228,1
108,27000,241,1
109,27250,241,1
110,27500,241,1
111,27750,241,1
112,28000,252,1
113,28250,252,1
114,28500,252,1
115,28750,252,1
116,29000,252,1
117,29250,261,1
118,29500,261,1
119,29750,261,1
120,30000,261,1
121,30250,261,1
122,30500,268,1
123,30750,268,1
124,31000,268,1
125,31250,268,1
126,31500,275,1
127,31750,275,1
128,32000,275,1
129,32250,275,1
130,32500,275,1
131,32750,279,1
132,33000,279,1
133,33250,279,1
134,33500,279,1
135,33750,281,1
136,34000,281,1
137,34250,281,1
138,34500,281,1
139,34750,281,1
140,35000,282,1
141,35250,282,1
142,35500,282,1
143,35750,282,1
144,36000,281,1
145,36250,281,1
146,36500,281,1
147,36750,281,1
148,37000,281,1
149,37250,279,1
150,37500,279,1
151,37750,279,1
152,38000,279,1
153,38250,279,1
154,38500,275,1
155,38750,275,1
156,39000,275,1
157,39250,275,1
158,39500,268,1
159,39750,268,1
160,40000,268,1
161,40250,268,1
162,40500,268,1
163,40750,261,1
164,41000,261,1
165,41250,261,1
166,41500,261,1
167,41750,252,1
168,42000,252,1
169,42250,252,1
170,42500,252,1
171,42750,252,1
172,43000,241,1
173,43250,241,1
174,43500,241,1
175,43750,241,1
176,44000,228,1
177,44250,228,1
178,44500,228,1
179,44750,228,1
180,45000,228,1
181,45250,215,1
182,45500,215,1
183,45750,215,1
184,46000,215,1
185,46250,200,1
186,46500,200,1
187,46750,200,1
188,47000,200,1
189,47250,183,1
190,47500,183,1
191,47750,183,1
192,48000,183,1
193,48250,183,1
194,48500,166,1
195,48750,166,1
196,49000,166,1
197,49250,166,1
198,49500,147,1
199,49750,147,1
200,50000,147,1
201,50250,147,1
202,50500,147,1
203,50750,128,1
204,51000,128,1
205,51250,128,1
206,51500,128,1
207,51750,108,1
208,52000,108,1
209,52250,108,1
210,52500,108,1
211,52750,87,1
212,53000,87,1
213,53250,87,1
214,53500,87,1
215,53750,87,1
216,54000,66,1
217,54250,66,1
218,54500,66,1
219,54750,66,1
220,55000,44,1
221,55250,44,1
222,55500,44,1
223,55750,44,1
224,56000,44,1
225,56250,22,1
226,56500,22,1
227,56750,22,1
228,57000,22,1
229,57250,0,1
230,57500,0,1
231,57750,0,1
232,58000,0,1
233,58250,0,1
234,58500,-22,1
235,58750,-22,1
236,59000,-22,1
237,59250,-22,1
238,59500,-44,1
239,59750,-44,1
240,60000,-44,1
241,60250,-44,1
242,60500,-44,1
243,60750,-66,1
244,61000,-66,1
245,61250,-66,1
246,61500,-66,1
247,61750,-87,1
248,62000,-87,1
249,62250,-87,1
250,62500,-87,1
251,62750,-87,1
252,63000,-108,1
253,63250,-108,1
254,63500,-108,1
255,63750,-108,1
256,64000,-128,1
257,64250,-147,1
258,64500,-147,1
259,64750,-147,1
260,65000,-147,1
261,65250,-166,1
262,65500,-166,1
263,65750,-166,1
264,66000,-166,1
265,66250,-166,1
266,66500,-183,1
267,66750,-183,1
268,67000,-183,1
269,67250,-183,1
270,67500,-200,1
271,67750,-200,1
272,68000,-200,1
273,68250,-200,1
274,68500,-200,1
275,68750,-215,1
276,69000,-215,1
277,69250,-215,1
278,69500,-215,1
279,69750,-228,1
280,70000,-228,1
281,70250,-228,1
282,70500,-228,1
283,70750,-228,1
284,71000,-241,1
285,71250,-241,1
286,71500,-241,1
287,71750,-241,1
288,72000,-252,1
289,72250,-252,1
290,72500,-252,1
291,72750,-252,1
292,73000,-252,1
293,73250,-261,1
294,73500,-261,1
295,73750,-261,1
296,74000,-261,1
297,74250,-268,1
298,74500,-275,1
299,74750,-275,1
300,75000,-275,1
301,75250,-275,1
302,75500,-279,1
303,75750,-279,1
304,76000,-279,1
305,76250,-279,1
306,76500,-281,1
307,76750,-281,1
308,77000,-281,1
309,77250,-281,1
310,77500,-282,1
311,77750,-282,1
312,78000,-282,1
313,78250,-282,1
314,78500,-282,1
315,78750,-281,1
316,79000,-281,1
317,79250,-281,1
318,79500,-281,1
319,79750,-281,1
320,80000,-279,1
321,80250,-279,1
322,80500,-279,1
323,80750,-279,1
324,81000,-275,1
325,81250,-275,1
326,81500,-275,1
327,81750,-275,1
328,82000,-275,1
329,82250,-268,1
330,82500,-268,1
331,82750,-268,1
332,83000,-268,1
333,83250,-261,1
334,83500,-261,1
335,83750,-261,1
336,84000,-261,1
337,84250,-252,1
338,84500,-252,1
339,84750,-252,1
340,85000,-252,1
341,85250,-252,1
342,85500,-241,1
343,85750,-241,1
344,86000,-241,1
345,86250,-241,1
346,86500,-228,1
347,86750,-228,1
348,87000,-228,1
349,87250,-228,1
350,87500,-228,1
351,87750,-215,1
352,88000,-215,1
353,88250,-215,1
354,88500,-215,1
355,88750,-200,1
356,89000,-200,1
357,89250,-200,1
358,89500,-200,1
359,89750,-183,1
360,90000,-183,1
361,90250,-183,1
362,90500,-183,1
363,90750,-183,1
364,91000,-166,1
365,91250,-166,1
366,91500,-166,1
367,91750,-166,1
368,92000,-147,1
369,92250,-147,1
370,92500,-147,1
371,92750,-147,1
372,93000,-147,1
373,93250,-128,1
374,93500,-128,1
375,93750,-128,1
376,94000,-128,1
377,94250,-128,1
378,94500,-108,1
379,94750,-108,1
380,95000,-108,1
381,95250,-108,1
382,95500,-87,1
383,95750,-87,1
384,96000,-87,1
385,96250,-87,1
386,96500,-87,1
387,96750,-66,1
388,97000,-66,1
389,97250,-66,1
390,97500,-66,1
391,97750,-44,1
392,98000,-44,1
393,98250,-44,1
394,98500,-44,1
395,98750,-44,1
396,99000,-22,1
397,99250,-22,1
398,99500,-22,1
399,99750,-22,1
400,100000,0,1
401,100250,0,1
402,100500,0,1
403,100750,0,1
404,101000,22,1
405,101250,22,1
406,101500,22,1
407,101750,22,1
408,102000,22,1
409,102250,44,1
410,102500,44,1
411,102750,44,1
412,103000,44,1
413,103250,66,1
414,103500,66,1
415,103750,66,1
416,104000,66,1
417,104250,87,1
418,104500,87,1
419,104750,87,1
420,105000,87,1
421,105250,87,1
422,105500,108,1
423,105750,108,1
424,106000,108,1
425,106250,108,1
426,106500,128,1
427,106750,128,1
428,107000,128,1
429,107250,128,1
430,107500,128,1
431,107750,147,1
432,108000,147,1
433,108250,147,1
434,108500,147,1
435,108750,166,1
436,109000,166,1
437,109250,166,1
438,109500,166,1
439,109750,166,1
440,110000,183,1
441,110250,183,1
442,110500,183,1
443,110750,183,1
444,111000,200,1
445,111250,200,1
446,111500,200,1
447,111750,200,1
448,112000,200,1
449,112250,215,1
450,112500,215,1
451,112750,215,1
452,113000,215,1
453,113250,228,1
454,113500,228,1
455,113750,228,1
456,114000,228,1
457,114250,228,1
458,114500,241,1
459,114750,241,1
460,115000,241,1
461,115250,241,1
462,115500,252,1
463,115750,252,1
464,116000,252,1
465,116250,252,1
466,116500,252,1
467,116750,261,1
468,117000,261,1
469,117250,261,1
470,117500,261,1
471,117750,268,1
472,118000,268,1
473,118250,268,1
474,118500,268,1
475,118750,268,1
476,119000,275,1
477,119250,275,1
478,119500,275,1
479,119750,275,1
480,120000,279,1
481,120250,279,1
482,120500,279,1
483,120750,279,1
484,121000,279,1
485,121250,281,1
486,121500,281,1
487,121750,281,1
488,122000,281,1
489,122250,281,1
490,122500,282,1
491,122750,282,1
492,123000,282,1
493,123250,282,1
494,123500,281,1
495,123750,281,1
496,124000,281,1
497,124250,281,1
498,124500,281,1
499,124750,279,1
500,125000,279,1
501,125250,279,1
502,125500,279,1
503,125750,275,1
504,126000,275,1
505,126250,275,1
506,126500,275,1
507,126750,275,1
508,127000,268,1
509,127250,268,1
510,127500,268,1
511,127750,268,1
512,128000,261,1
513,128250,261,1
514,128500,261,1
515,128750,261,1
516,129000,261,1
517,129250,252,1
518,129500,252,1
519,129750,252,1
520,130000,252,1
521,130250,252,1
522,130500,241,1
523,130750,241,1
524,131000,241,1
525,131250,241,1
526,131500,228,1
527,131750,228,1
528,132000,228,1
529,132250,228,1
530,132500,228,1
531,132750,215,1
532,133000,215,1
533,133250,215,1
534,133500,215,1
535,133750,200,1
536,134000,200,1
537,134250,200,1
538,134500,200,1
539,134750,200,1
540,135000,183,1
541,135250,183,1
542,135500,183,1
543,135750,183,1
544,136000,166,1
545,136250,166,1
546,136500,166,1
547,136750,166,1
548,137000,166,1
549,137250,147,1
550,137500,147,1
551,137750,147,1
552,138000,147,1
553,138250,147,1
554,138500,128,1
555,138750,128,1
556,139000,128,1
557,139250,128,1
558,139500,108,1
559,139750,108,1
560,140000,108,1
561,140250,108,1
562,140500,108,1
563,140750,87,1
564,141000,87,1
565,141250,87,1
566,141500,87,1
567,141750,66,1
568,142000,66,1
569,142250,66,1
570,142500,66,1
571,142750,66,1
572,143000,44,1
573,143250,44,1
574,143500,44,1
575,143750,44,1
576,144000,22,1
577,144250,22,1
578,144500,22,1
579,144750,22,1
580,145000,22,1
581,145250,0,1
582,145500,0,1
583,145750,0,1
584,146000,0,1
585,146250,0,1
586,146500,-22,1
587,146750,-22,1
588,147000,-22,1
589,147250,-22,1
590,147500,-44,1
591,147750,-44,1
592,148000,-44,1
593,148250,-44,1
594,148500,-44,1
595,148750,-66,1
596,149000,-66,1
597,149250,-66,1
598,149500,-66,1
599,149750,-87,1
600,150000,-87,1
601,150250,-87,1
602,150500,-87,1
603,150750,-87,1
604,151000,-108,1
605,151250,-108,1
606,151500,-108,1
607,151750,-108,1
608,152000,-128,1
609,152250,-128,1
610,152500,-128,1
611,152750,-128,1
612,153000,-128,1
613,153250,-147,1
614,153500,-147,1
615,153750,-147,1
616,154000,-147,1
617,154250,-166,1
618,154500,-166,1
619,154750,-166,1
620,155000,-166,1
621,155250,-166,1
622,155500,-183,1
623,155750,-183,1
624,156000,-183,1
625,156250,-183,1
626,156500,-183,1
627,156750,-200,1
628,157000,-200,1
629,157250,-200,1
630,157500,-200,1
631,157750,-215,1
632,158000,-215,1
633,158250,-215,1
634,158500,-215,1
635,158750,-215,1
636,159000,-228,1
637,159250,-228,1
638,159500,-228,1
639,159750,-228,1
640,160000,-241,1
641,160250,-241,1
642,160500,-241,1
643,160750,-241,1
644,161000,-241,1
645,161250,-252,1
646,161500,-252,1
647,161750,-252,1
648,162000,-252,1
649,162250,-252,1
650,162500,-261,1
651,162750,-261,1
652,163000,-261,1
653,163250,-261,1
654,163500,-268,1
655,163750,-268,1
656,164000,-268,1
657,164250,-268,1
658,164500,-268,1
659,164750,-275,1
660,165000,-275,1
661,165250,-275,1
662,165500,-275,1
663,165750,-279,1
664,166000,-279,1
665,166250,-279,1
666,166500,-279,1
667,166750,-279,1
668,167000,-281,1
669,167250,-281,1
670,167500,-281,1
671,167750,-281,1
672,168000,-282,1
673,168250,-282,1
674,168500,-282,1
675,168750,-282,1
676,169000,-282,1
677,169250,-281,1
678,169500,-281,1
679,169750,-281,1
680,170000,-281,1
681,170250,-281,1
682,170500,-279,1
683,170750,-279,1
684,171000,-279,1
685,171250,-279,1
686,171500,-275,1
687,171750,-275,1
688,172000,-275,1
689,172250,-275,1
690,172500,-275,1
691,172750,-268,1
692,173000,-268,1
693,173250,-268,1
694,173500,-268,1
695,173750,-261,1
696,174000,-261,1
697,174250,-261,1
698,174500,-261,1
699,174750,-261,1
700,175000,-252,1
701,175250,-252,1
702,175500,-252,1
703,175750,-252,1
704,176000,-241,1
705,176250,-241,1
706,176500,-241,1
707,176750,-241,1
708,177000,-241,1
709,177250,-228,1
710,177500,-228,1
711,177750,-228,1
712,178000,-228,1
713,178250,-228,1
714,178500,-215,1
715,178750,-215,1
716,179000,-215,1
717,179250,-215,1
718,179500,-200,1
719,179750,-200,1
720,180000,-200,1
721,180250,-200,1
722,180500,-200,1
723,180750,-183,1
724,181000,-183,1
725,181250,-183,1
726,181500,-183,1
727,181750,-166,1
728,182000,-166,1
729,182250,-166,1
730,182500,-166,1
731,182750,-166,1
732,183000,-147,1
733,183250,-147,1
734,183500,-147,1
735,183750,-147,1
736,184000,-128,1
737,184250,-128,1
738,184500,-128,1
739,184750,-128,1
740,185000,-128,1
741,185250,-108,1
742,185500,-108,1
743,185750,-108,1
744,186000,-108,1
745,186250,-108,1
746,186500,-87,1
747,186750,-87,1
748,187000,-87,1
749,187250,-87,1
750,187500,-66,1
751,187750,-66,1
752,188000,-66,1
753,188250,-66,1
754,188500,-66,1
755,188750,-44,1
756,189000,-44,1
757,189250,-44,1
758,189500,-44,1
759,189750,-22,1
760,190000,-22,1
761,190250,-22,1
762,190500,-22,1
763,190750,-22,1
764,191000,0,1
765,191250,0,1
766,191500,0,1
767,191750,0,1
768,192000,22,1
769,192250,22,1
770,192500,22,1
771,192750,22,1
772,193000,22,1
773,193250,44,1
774,193500,44,1
775,193750,44,1
776,194000,44,1
777,194250,44,1
778,194500,66,1
779,194750,66,1
780,195000,66,1
781,195250,66,1
782,195500,87,1
783,195750,87,1
784,196000,87,1
785,196250,87,1
786,196500,87,1
787,196750,108,1
788,197000,108,1
789,197250,108,1
790,197500,108,1
791,197750,128,1
792,198000,128,1
793,198250,128,1
794,198500,128,1
795,198750,128,1
796,199000,147,1
797,199250,147,1
798,199500,147,1
799,199750,147,1
800,200000,147,1
801,200250,166,1
802,200500,166,1
803,200750,166,1
804,201000,166,1
805,201250,183,1
806,201500,183,1
807,201750,183,1
808,202000,183,1
809,202250,183,1
810,202500,200,1
811,202750,200,1
812,203000,200,1
813,203250,200,1
814,203500,200,1
815,203750,215,1
816,204000,215,1
817,204250,215,1
818,204500,215,1
819,204750,228,1
820,205000,228,1
821,205250,228,1
822,205500,228,1
823,205750,241,1
824,206000,252,1
825,206250,252,1
826,206500,252,1
827,206750,252,1
828,207000,261,1
829,207250,261,1
830,207500,261,1
831,207750,261,1
832,208000,261,1
833,208250,268,1
834,208500,268,1
835,208750,268,1
836,209000,268,1
837,209250,275,1
838,209500,275,1
839,209750,275,1
840,210000,275,1
841,210250,275,1
842,210500,279,1
843,210750,279,1
844,211000,279,1
845,211250,279,1
846,211500,279,1
847,211750,281,1
848,212000,281,1
849,212250,281,1
850,212500,281,1
851,212750,282,1
852,213000,282,1
853,213250,282,1
854,213500,282,1
855,213750,281,1
856,214000,281,1
857,214250,281,1
858,214500,281,1
859,214750,281,1
860,215000,279,1
861,215250,279,1
862,215500,279,1
863,215750,279,1
864,216000,275,1
865,216250,275,1
866,216500,275,1
867,216750,275,1
868,217000,275,1
869,217250,268,1
870,217500,268,1
871,217750,268,1
872,218000,268,1
873,218250,268,1
874,218500,261,1
875,218750,261,1
876,219000,261,1
877,219250,261,1
878,219500,252,1
879,219750,252,1
880,220000,252,1
881,220250,252,1
882,220500,252,1
883,220750,241,1
884,221000,241,1
885,221250,241,1
886,221500,241,1
887,221750,228,1
888,222000,228,1
889,222250,228,1
890,222500,228,1
891,222750,228,1
892,223000,215,1
893,223250,215,1
894,223500,215,1
895,223750,215,1
896,224000,200,1
897,224250,200,1
898,224500,200,1
899,224750,200,1
900,225000,200,1
901,225250,183,1
902,225500,183,1
903,225750,183,1
904,226000,183,1
905,226250,183,1
906,226500,166,1
907,226750,166,1
908,227000,166,1
909,227250,166,1
910,227500,147,1
911,227750,147,1
912,228000,147,1
913,228250,147,1
914,228500,147,1
915,228750,128,1
916,229000,128,1
917,229250,128,1
918,229500,128,1
919,229750,108,1
920,230000,108,1
921,230250,108,1
922,230500,108,1
923,230750,108,1
924,231000,87,1
925,231250,87,1
926,231500,87,1
927,231750,87,1
928,232000,66,1
929,232250,66,1
930,232500,66,1
931,232750,66,1
932,233000,66,1
933,233250,44,1
934,233500,44,1
935,233750,44,1
936,234000,44,1
937,234250,44,1
938,234500,22,1
939,234750,22,1
940,235000,22,1
941,235250,22,1
942,235500,0,1
943,235750,0,1
944,236000,0,1
945,236250,0,1
946,236500,0,1
947,236750,-22,1
948,237000,-22,1
949,237250,-22,1
950,237500,-22,1
951,237750,-44,1
952,238000,-44,1
953,238250,-44,1
954,238500,-44,1
955,238750,-44,1
956,239000,-66,1
957,239250,-66,1
958,239500,-66,1
959,239750,-66,1
960,240000,-87,1
961,240250,-87,1
962,240500,-87,1
963,240750,-87,1
964,241000,-87,1
965,241250,-108,1
966,241500,-108,1
967,241750,-108,1
968,242000,-108,1
969,242250,-108,1
970,242500,-128,1
971,242750,-128,1
972,243000,-128,1
973,243250,-128,1
974,243500,-147,1
975,243750,-147,1
976,244000,-147,1
977,244250,-147,1
978,244500,-147,1
979,244750,-166,1
980,245000,-166,1
981,245250,-166,1
982,245500,-166,1
983,245750,-183,1
984,246000,-183,1
985,246250,-183,1
986,246500,-183,1
987,246750,-183,1
988,247000,-200,1
989,247250,-200,1
990,247500,-200,1
991,247750,-200,1
992,248000,-215,1
993,248250,-215,1
994,248500,-215,1
995,248750,-215,1
996,249000,-215,1
997,249250,-228,1
998,249500,-228,1
999,249750,-228,1
1000,250000,-228,1
1001,250250,-228,1
1002,250500,-241,1
1003,250750,-241,1
1004,251000,-241,1
1005,251250,-241,1
1006,251500,-252,1
1007,251750,-252,1
1008,252000,-252,1
1009,252250,-252,1
1010,252500,-252,1
1011,252750,-261,1
1012,253000,-261,1
1013,253250,-261,1
1014,253500,-261,1
1015,253750,-268,1
1016,254000,-268,1
1017,254250,-268,1
1018,254500,-268,1
1019,254750,-268,1
1020,255000,-275,1
1021,255250,-275,1
1022,255500,-275,1
1023,255750,-275,1
1024,256000,-279,1
1025,256250,-279,1
1026,256500,-279,1
1027,256750,-279,1
1028,257000,-279,1
1029,257250,-281,1
1030,257500,-281,1
1031,257750,-281,1
1032,258000,-281,1
1033,258250,-281,1
1034,258500,-282,1
1035,258750,-282,1
1036,259000,-282,1
1037,259250,-282,1
1038,259500,-281,1
1039,259750,-281,1
1040,260000,-281,1
1041,260250,-281,1
1042,260500,-281,1
1043,260750,-279,1
1044,261000,-279,1
1045,261250,-279,1
1046,261500,-279,1
1047,261750,-275,1
1048,262000,-275,1
1049,262250,-275,1
1050,262500,-275,1
1051,262750,-275,1
1052,263000,-268,1
1053,263250,-268,1
1054,263500,-268,1
1055,263750,-268,1
1056,264000,-268,1
1057,264250,-261,1
1058,264500,-261,1
1059,264750,-261,1
1060,265000,-261,1
1061,265250,-252,1
1062,265500,-252,1
1063,265750,-252,1
1064,266000,-252,1
1065,266250,-241,1
1066,266500,-241,1
1067,266750,-241,1
1068,267000,-241,1
1069,267250,-241,1
1070,267500,-228,1
1071,267750,-228,1
1072,268000,-228,1
1073,268250,-228,1
1074,268500,-228,1
1075,268750,-215,1
1076,269000,-215,1
1077,269250,-215,1
1078,269500,-215,1
1079,269750,-200,1
1080,270000,-200,1
1081,270250,-200,1
1082,270500,-200,1
1083,270750,-200,1
1084,271000,-183,1
1085,271250,-183,1
1086,271500,-183,1
1087,271750,-183,1
1088,272000,-166,1
1089,272250,-166,1
1090,272500,-166,1
1091,272750,-166,1
1092,273000,-166,1
1093,273250,-147,1
1094,273500,-147,1
1095,273750,-147,1
1096,274000,-147,1
1097,274250,-128,1
1098,274500,-128,1
1099,274750,-128,1
1100,275000,-128,1
1101,275250,-128,1
1102,275500,-108,1
1103,275750,-108,1
1104,276000,-108,1
1105,276250,-108,1
1106,276500,-87,1
1107,276750,-87,1
1108,277000,-87,1
